
**** 10/24/17 22:04:31 ****** PSpice Lite (October 2012) ****** ID# 10813 ****

 ** Profile: "SCHEMATIC1-bonus2"  [ D:\VE215\lab2\inverting-PSpiceFiles\SCHEMATIC1\bonus2.sim ] 


 ****     CIRCUIT DESCRIPTION


******************************************************************************




** Creating circuit file "bonus2.cir" 
** WARNING: THIS AUTOMATICALLY GENERATED FILE MAY BE OVERWRITTEN BY SUBSEQUENT SIMULATIONS

*Libraries: 
* Profile Libraries :
* Local Libraries :
* From [PSPICE NETLIST] section of C:\SPB_Data\cdssetup\OrCAD_PSpice/16.6.0/PSpice.ini file:
.lib "nomd.lib" 

*Analysis directives: 
.TRAN  0 1m 0 
.OPTIONS ADVCONV
.PROBE64 V(alias(*)) I(alias(*)) W(alias(*)) D(alias(*)) NOISE(alias(*)) 
.INC "..\SCHEMATIC1.net" 



**** INCLUDING SCHEMATIC1.net ****
* source INVERTING
V_V3         0 N00937 1000
V_V2         N00903 0 1000
X_U1         0 N00811 N00903 N00937 N00885 uA741
R_R2         N00811 N00885  100 TC=0,0 
R_R1         N00835 N00811  50 TC=0,0 
V_V1         N00835 0  
+PULSE -1 1 0 1m 1m 1m 6m

**** RESUMING bonus2.cir ****
.END

**** 10/24/17 22:04:31 ****** PSpice Lite (October 2012) ****** ID# 10813 ****

 ** Profile: "SCHEMATIC1-bonus2"  [ D:\VE215\lab2\inverting-PSpiceFiles\SCHEMATIC1\bonus2.sim ] 


 ****     Diode MODEL PARAMETERS


******************************************************************************




               X_U1.dx         
          IS  800.000000E-18 
          RS    1            


**** 10/24/17 22:04:31 ****** PSpice Lite (October 2012) ****** ID# 10813 ****

 ** Profile: "SCHEMATIC1-bonus2"  [ D:\VE215\lab2\inverting-PSpiceFiles\SCHEMATIC1\bonus2.sim ] 


 ****     BJT MODEL PARAMETERS


******************************************************************************




               X_U1.qx         
               NPN             
       LEVEL    1            
          IS  800.000000E-18 
          BF   93.75         
          NF    1            
          BR    1            
          NR    1            
         ISS    0            
          RE    0            
          RC    0            
         CJE    0            
         VJE     .75         
         CJC    0            
         VJC     .75         
         MJC     .33         
        XCJC    1            
         CJS    0            
         VJS     .75         
          KF    0            
          AF    1            
          CN    2.42         
           D     .87         


**** 10/24/17 22:04:31 ****** PSpice Lite (October 2012) ****** ID# 10813 ****

 ** Profile: "SCHEMATIC1-bonus2"  [ D:\VE215\lab2\inverting-PSpiceFiles\SCHEMATIC1\bonus2.sim ] 


 ****     INITIAL TRANSIENT SOLUTION       TEMPERATURE =   27.000 DEG C


******************************************************************************



 NODE   VOLTAGE     NODE   VOLTAGE     NODE   VOLTAGE     NODE   VOLTAGE


(N00811)-6.015E-06 (N00835)   -1.0000 (N00885)    2.0000 (N00903) 1000.0000     

(N00937)-1000.0000 (X_U1.6)-475.4E-06 (X_U1.7)    3.0000 (X_U1.8)    3.0000     

(X_U1.9)    0.0000 (X_U1.10)    -.6077                   (X_U1.11)  999.9600    

(X_U1.12)  999.9600                   (X_U1.13)    -.5938                       

(X_U1.14)    -.5938                   (X_U1.53)  999.0000                       

(X_U1.54) -999.0000                   (X_U1.90)   20.0000                       

(X_U1.91)   40.0000                   (X_U1.92)  -40.0000                       

(X_U1.99)    0.0000                   




    VOLTAGE SOURCE CURRENTS
    NAME         CURRENT

    V_V3        -1.101E-01
    V_V2        -1.101E-01
    V_V1         2.000E-02
    X_U1.vb     -4.754E-09
    X_U1.vc      9.970E-10
    X_U1.ve      1.001E-09
    X_U1.vlim    2.000E-02
    X_U1.vlp    -2.000E-11
    X_U1.vln    -6.000E-11

    TOTAL POWER DISSIPATION   2.20E+02  WATTS



          JOB CONCLUDED

**** 10/24/17 22:04:31 ****** PSpice Lite (October 2012) ****** ID# 10813 ****

 ** Profile: "SCHEMATIC1-bonus2"  [ D:\VE215\lab2\inverting-PSpiceFiles\SCHEMATIC1\bonus2.sim ] 


 ****     JOB STATISTICS SUMMARY


******************************************************************************



  Total job time (using Solver 1)   =         .03
