
**** 09/24/17 17:31:12 ****** PSpice Lite (October 2012) ****** ID# 10813 ****

 ** Profile: "SCHEMATIC1-test2"  [ D:\VE215\ex2\ex2-pspicefiles\schematic1\test2.sim ] 


 ****     CIRCUIT DESCRIPTION


******************************************************************************




** Creating circuit file "test2.cir" 
** WARNING: THIS AUTOMATICALLY GENERATED FILE MAY BE OVERWRITTEN BY SUBSEQUENT SIMULATIONS

*Libraries: 
* Profile Libraries :
* Local Libraries :
* From [PSPICE NETLIST] section of C:\SPB_Data\cdssetup\OrCAD_PSpice/16.6.0/PSpice.ini file:
.lib "nomd.lib" 

*Analysis directives: 
.TRAN  0 1000ns 0 
.OPTIONS ADVCONV
.PROBE64 V(alias(*)) I(alias(*)) W(alias(*)) D(alias(*)) NOISE(alias(*)) 
.INC "..\SCHEMATIC1.net" 



**** INCLUDING SCHEMATIC1.net ****
* source EX2
V_V1         N00581 0 120
R_R1         N00565 0  30 TC=0,0 
R_R2         0 N00599  30 TC=0,0 
R_R3         N00565 N00581  10 TC=0,0 
R_R4         N00581 N00599  10 TC=0,0 
R_R5         N00565 N00599  30 TC=0,0 

**** RESUMING test2.cir ****
.END

**** 09/24/17 17:31:12 ****** PSpice Lite (October 2012) ****** ID# 10813 ****

 ** Profile: "SCHEMATIC1-test2"  [ D:\VE215\ex2\ex2-pspicefiles\schematic1\test2.sim ] 


 ****     INITIAL TRANSIENT SOLUTION       TEMPERATURE =   27.000 DEG C


******************************************************************************



 NODE   VOLTAGE     NODE   VOLTAGE     NODE   VOLTAGE     NODE   VOLTAGE


(N00565)   90.0000 (N00581)  120.0000 (N00599)   90.0000 




    VOLTAGE SOURCE CURRENTS
    NAME         CURRENT

    V_V1        -6.000E+00

    TOTAL POWER DISSIPATION   7.20E+02  WATTS



          JOB CONCLUDED

**** 09/24/17 17:31:12 ****** PSpice Lite (October 2012) ****** ID# 10813 ****

 ** Profile: "SCHEMATIC1-test2"  [ D:\VE215\ex2\ex2-pspicefiles\schematic1\test2.sim ] 


 ****     JOB STATISTICS SUMMARY


******************************************************************************



  Total job time (using Solver 1)   =        0.00
