
**** 10/22/17 13:11:00 ****** PSpice Lite (October 2012) ****** ID# 10813 ****

 ** Profile: "SCHEMATIC1-ex1"  [ D:\VE215\ex5\ex1-pspicefiles\schematic1\ex1.sim ] 


 ****     CIRCUIT DESCRIPTION


******************************************************************************




** Creating circuit file "ex1.cir" 
** WARNING: THIS AUTOMATICALLY GENERATED FILE MAY BE OVERWRITTEN BY SUBSEQUENT SIMULATIONS

*Libraries: 
* Profile Libraries :
* Local Libraries :
* From [PSPICE NETLIST] section of C:\SPB_Data\cdssetup\OrCAD_PSpice/16.6.0/PSpice.ini file:
.lib "nomd.lib" 

*Analysis directives: 
.TRAN  0 1000ns 0 
.OPTIONS ADVCONV
.PROBE64 V(alias(*)) I(alias(*)) W(alias(*)) D(alias(*)) NOISE(alias(*)) 
.INC "..\SCHEMATIC1.net" 



**** INCLUDING SCHEMATIC1.net ****
* source EX1
R_R2         N00504 0  4 TC=0,0 
R_R3         0 N00504  6 TC=0,0 
R_R1         N00504 N00498  6 TC=0,0 
V_V1         N00498 0 108

**** RESUMING ex1.cir ****
.END

**** 10/22/17 13:11:00 ****** PSpice Lite (October 2012) ****** ID# 10813 ****

 ** Profile: "SCHEMATIC1-ex1"  [ D:\VE215\ex5\ex1-pspicefiles\schematic1\ex1.sim ] 


 ****     INITIAL TRANSIENT SOLUTION       TEMPERATURE =   27.000 DEG C


******************************************************************************



 NODE   VOLTAGE     NODE   VOLTAGE     NODE   VOLTAGE     NODE   VOLTAGE


(N00498)  108.0000 (N00504)   30.8570 




    VOLTAGE SOURCE CURRENTS
    NAME         CURRENT

    V_V1        -1.286E+01

    TOTAL POWER DISSIPATION   1.39E+03  WATTS



          JOB CONCLUDED

**** 10/22/17 13:11:00 ****** PSpice Lite (October 2012) ****** ID# 10813 ****

 ** Profile: "SCHEMATIC1-ex1"  [ D:\VE215\ex5\ex1-pspicefiles\schematic1\ex1.sim ] 


 ****     JOB STATISTICS SUMMARY


******************************************************************************



  Total job time (using Solver 1)   =         .02
