
**** 10/23/17 09:39:13 ****** PSpice Lite (October 2012) ****** ID# 10813 ****

 ** Profile: "SCHEMATIC1-SIM"  [ D:\VE215\ex5\xbb-pspicefiles\schematic1\sim.sim ] 


 ****     CIRCUIT DESCRIPTION


******************************************************************************




** Creating circuit file "SIM.cir" 
** WARNING: THIS AUTOMATICALLY GENERATED FILE MAY BE OVERWRITTEN BY SUBSEQUENT SIMULATIONS

*Libraries: 
* Profile Libraries :
* Local Libraries :
* From [PSPICE NETLIST] section of C:\SPB_Data\cdssetup\OrCAD_PSpice/16.6.0/PSpice.ini file:
.lib "nomd.lib" 

*Analysis directives: 
.TRAN  0 10 0 
.OPTIONS ADVCONV
.PROBE64 V(alias(*)) I(alias(*)) W(alias(*)) D(alias(*)) NOISE(alias(*)) 
.INC "..\SCHEMATIC1.net" 



**** INCLUDING SCHEMATIC1.net ****
* source XBB
L_L2         0 N14435  2 IC=7.714 
R_R1         N14417 N14426  3  
R_R2         N14426 N14435  4  
R_R3         0 N14426  6  
V_V1         N14417 0 108

**** RESUMING SIM.cir ****
.END

**** 10/23/17 09:39:13 ****** PSpice Lite (October 2012) ****** ID# 10813 ****

 ** Profile: "SCHEMATIC1-SIM"  [ D:\VE215\ex5\xbb-pspicefiles\schematic1\sim.sim ] 


 ****     INITIAL TRANSIENT SOLUTION       TEMPERATURE =   27.000 DEG C


******************************************************************************



 NODE   VOLTAGE     NODE   VOLTAGE     NODE   VOLTAGE     NODE   VOLTAGE


(N14417)  108.0000 (N14426)   87.4280 (N14435)  118.2800 




    VOLTAGE SOURCE CURRENTS
    NAME         CURRENT

    V_V1        -6.857E+00

    TOTAL POWER DISSIPATION   7.41E+02  WATTS



          JOB CONCLUDED

**** 10/23/17 09:39:13 ****** PSpice Lite (October 2012) ****** ID# 10813 ****

 ** Profile: "SCHEMATIC1-SIM"  [ D:\VE215\ex5\xbb-pspicefiles\schematic1\sim.sim ] 


 ****     JOB STATISTICS SUMMARY


******************************************************************************



  Total job time (using Solver 1)   =        0.00
