
**** 10/29/17 23:22:37 ****** PSpice Lite (October 2012) ****** ID# 10813 ****

 ** Profile: "SCHEMATIC1-xbhw6sim"  [ D:\VE215\ex6\xiaobaihw6-pspicefiles\schematic1\xbhw6sim.sim ] 


 ****     CIRCUIT DESCRIPTION


******************************************************************************




** Creating circuit file "xbhw6sim.cir" 
** WARNING: THIS AUTOMATICALLY GENERATED FILE MAY BE OVERWRITTEN BY SUBSEQUENT SIMULATIONS

*Libraries: 
* Profile Libraries :
* Local Libraries :
* From [PSPICE NETLIST] section of C:\SPB_Data\cdssetup\OrCAD_PSpice/16.6.0/PSpice.ini file:
.lib "nomd.lib" 

*Analysis directives: 
.TRAN  0 4 0 
.OPTIONS ADVCONV
.PROBE64 V(alias(*)) I(alias(*)) W(alias(*)) D(alias(*)) NOISE(alias(*)) 
.INC "..\SCHEMATIC1.net" 



**** INCLUDING SCHEMATIC1.net ****
* source XIAOBAIHW6
C_C1         N00150 N00141  0.4 IC=0 TC=0,0 
L_L1         N00137 N00141  2H IC=0 
R_R1         N00133 N00137  6 TC=0,0 
R_R2         0 N00141  3 TC=0,0 
V_V1         N00133 N00150 24Vdc

**** RESUMING xbhw6sim.cir ****
.END

**** 10/29/17 23:22:37 ****** PSpice Lite (October 2012) ****** ID# 10813 ****

 ** Profile: "SCHEMATIC1-xbhw6sim"  [ D:\VE215\ex6\xiaobaihw6-pspicefiles\schematic1\xbhw6sim.sim ] 


 ****     INITIAL TRANSIENT SOLUTION       TEMPERATURE =   27.000 DEG C


******************************************************************************



 NODE   VOLTAGE     NODE   VOLTAGE     NODE   VOLTAGE     NODE   VOLTAGE


(N00133)   24.0000 (N00137)   24.0000 (N00141)-714.3E-18 (N00150)-48.00E-12 




    VOLTAGE SOURCE CURRENTS
    NAME         CURRENT

    V_V1        -2.400E-08

    TOTAL POWER DISSIPATION   5.76E-07  WATTS



          JOB CONCLUDED

**** 10/29/17 23:22:37 ****** PSpice Lite (October 2012) ****** ID# 10813 ****

 ** Profile: "SCHEMATIC1-xbhw6sim"  [ D:\VE215\ex6\xiaobaihw6-pspicefiles\schematic1\xbhw6sim.sim ] 


 ****     JOB STATISTICS SUMMARY


******************************************************************************



  Total job time (using Solver 1)   =        0.00
