
**** 09/28/17 18:13:41 ****** PSpice Lite (October 2012) ****** ID# 10813 ****

 ** Profile: "SCHEMATIC1-hw3"  [ D:\VE215\ex3\ex3-pspicefiles\schematic1\hw3.sim ] 


 ****     CIRCUIT DESCRIPTION


******************************************************************************




** Creating circuit file "hw3.cir" 
** WARNING: THIS AUTOMATICALLY GENERATED FILE MAY BE OVERWRITTEN BY SUBSEQUENT SIMULATIONS

*Libraries: 
* Profile Libraries :
* Local Libraries :
* From [PSPICE NETLIST] section of C:\SPB_Data\cdssetup\OrCAD_PSpice/16.6.0/PSpice.ini file:
.lib "nomd.lib" 

*Analysis directives: 
.TRAN  0 1000ns 0 
.OPTIONS ADVCONV
.PROBE64 V(alias(*)) I(alias(*)) W(alias(*)) D(alias(*)) NOISE(alias(*)) 
.INC "..\SCHEMATIC1.net" 



**** INCLUDING SCHEMATIC1.net ****
* source EX3
V_V1         N00076 0 6
R_R1         N00076 N00092  3k TC=0,0 
X_F1    N00092 0 N00251 0 SCHEMATIC1_F1 
R_R2         0 N00251  2k TC=0,0 

.subckt SCHEMATIC1_F1 1 2 3 4  
F_F1         3 4 VF_F1 20
VF_F1         1 2 0V
.ends SCHEMATIC1_F1

**** RESUMING hw3.cir ****
.END

**** 09/28/17 18:13:41 ****** PSpice Lite (October 2012) ****** ID# 10813 ****

 ** Profile: "SCHEMATIC1-hw3"  [ D:\VE215\ex3\ex3-pspicefiles\schematic1\hw3.sim ] 


 ****     INITIAL TRANSIENT SOLUTION       TEMPERATURE =   27.000 DEG C


******************************************************************************



 NODE   VOLTAGE     NODE   VOLTAGE     NODE   VOLTAGE     NODE   VOLTAGE


(N00076)    6.0000 (N00092)    0.0000 (N00251)  -80.0000 




    VOLTAGE SOURCE CURRENTS
    NAME         CURRENT

    V_V1        -2.000E-03
    X_F1.VF_F1   2.000E-03

    TOTAL POWER DISSIPATION   1.20E-02  WATTS



          JOB CONCLUDED

**** 09/28/17 18:13:41 ****** PSpice Lite (October 2012) ****** ID# 10813 ****

 ** Profile: "SCHEMATIC1-hw3"  [ D:\VE215\ex3\ex3-pspicefiles\schematic1\hw3.sim ] 


 ****     JOB STATISTICS SUMMARY


******************************************************************************



  Total job time (using Solver 1)   =         .02
